
T3904 000:080 SEGGER J-Link V6.10i Log File (0001ms, 0024ms total)
T3904 000:080 DLL Compiled: Oct 25 2016 19:31:51 (0001ms, 0024ms total)
T3904 000:080 Logging started @ 2019-12-20 14:15 (0001ms, 0024ms total)
T3904 000:082 JLINK_SetWarnOutHandler(...) (0000ms, 0025ms total)
T3904 000:082 JLINK_OpenEx(...)
Firmware: J-Link ARM V8 compiled Nov 28 2014 13:44:46
Hardware: V8.00
Feature(s): RDI,FlashDL,FlashBP,JFlash,GDBWEBSRV Webserver running on local port 19080 (0015ms, 0040ms total)
T3904 000:082   returns O.K. (0015ms, 0040ms total)
T3904 000:097 JLINK_SetErrorOutHandler(...) (0000ms, 0040ms total)
T3904 000:097 JLINK_ExecCommand("ProjectFile = "E:\HopeRf Work\Demo Code\CMT2300A_Demo£¨STM32F103£©\CMT2300A_Demo(STM32)V1.0.1\CMT2300A_Demo_Tx\MDK-ARM\JLinkSettings.ini"", ...). D:\Program Files (x86)\SEGGER\JLink_V610i\JLinkDevices.xml evaluated successfully.  returns 0x00 (0141ms, 0181ms total)
T3904 000:238 JLINK_ExecCommand("Device = STM32F103VC", ...). Device "STM32F103VC" selected.  returns 0x00 (0001ms, 0182ms total)
T3904 000:239 JLINK_ExecCommand("DisableConnectionTimeout", ...).   returns 0x01 (0000ms, 0182ms total)
T3904 000:239 JLINK_GetHardwareVersion()  returns 0x13880 (0001ms, 0183ms total)
T3904 000:240 JLINK_GetDLLVersion()  returns 61009 (0000ms, 0183ms total)
T3904 000:240 JLINK_GetFirmwareString(...) (0000ms, 0183ms total)
T3904 000:240 JLINK_GetDLLVersion()  returns 61009 (0000ms, 0183ms total)
T3904 000:240 JLINK_GetCompileDateTime() (0000ms, 0183ms total)
T3904 000:240 JLINK_GetFirmwareString(...) (0000ms, 0183ms total)
T3904 000:240 JLINK_GetHardwareVersion()  returns 0x13880 (0000ms, 0183ms total)
T3904 000:241 JLINK_TIF_Select(JLINKARM_TIF_SWD)  returns 0x00 (0001ms, 0184ms total)
T3904 000:242 JLINK_SetSpeed(50000) (0000ms, 0184ms total)
T3904 000:243 JLINK_GetId() >0x108 TIF>Found SWD-DP with ID 0x1BA01477 >0x0D TIF> >0x28 TIF> >0x0D TIF> >0x28 TIF> >0x0D TIF> >0x28 TIF> >0x0D TIF> >0x28 TIF> >0x0D TIF> >0x21 TIF> >0x0D TIF> >0x28 TIF> >0x0D TIF> >0x28 TIF> >0x0D TIF> >0x28 TIF> >0x0D TIF> >0x21 TIF> >0x0D TIF> >0x21 TIF> >0x0D TIF> >0x28 TIF> >0x0D TIF> >0x21 TIF> >0x0D TIF> >0x21 TIF> >0x0D TIF> >0x28 TIF> >0x0D TIF> >0x21 TIF> >0x0D TIF> >0x21 TIF> >0x0D TIF> >0x28 TIF> >0x0D TIF> >0x21 TIF> >0x0D TIF> >0x21 TIF> >0x0D TIF>
 >0x28 TIF> >0x0D TIF> >0x21 TIF> >0x0D TIF> >0x21 TIF> >0x0D TIF> >0x28 TIF> >0x0D TIF> >0x21 TIF> >0x0D TIF> >0x21 TIF> >0x0D TIF> >0x28 TIF> >0x0D TIF> >0x21 TIF> >0x0D TIF> >0x21 TIF> >0x108 TIF>Found SWD-DP with ID 0x1BA01477 >0x0D TIF> >0x28 TIF> >0x0D TIF> >0x28 TIF> >0x0D TIF> >0x28 TIF> >0x0D TIF> >0x28 TIF> >0x0D TIF> >0x21 TIF> >0x0D TIF> >0x28 TIF> >0x0D TIF> >0x28 TIF> >0x0D TIF> >0x21 TIF> >0x0D TIF> >0x21 TIF> >0x0D TIF> >0x21 TIF>AP-IDR: 0x14770011, Type: AHB-AP >0x0D TIF> >0x28 TIF>
 >0x0D TIF> >0x28 TIF> >0x0D TIF> >0x28 TIF> >0x0D TIF> >0x21 TIF> >0x0D TIF> >0x21 TIF> >0x0D TIF> >0x28 TIF> >0x0D TIF> >0x21 TIF> >0x0D TIF> >0x21 TIF>Found Cortex-M3 r1p1, Little endian. -- CPU_ReadMem(4 bytes @ 0xE000EDF0) -- CPU_WriteMem(4 bytes @ 0xE000EDF0) -- CPU_ReadMem(4 bytes @ 0xE0002000)FPUnit: 6 code (BP) slots and 2 literal slots -- CPU_ReadMem(4 bytes @ 0xE000EDFC) -- CPU_WriteMem(4 bytes @ 0xE000EDFC) -- CPU_ReadMem(4 bytes @ 0xE0001000) -- CPU_WriteMem(4 bytes @ 0xE0001000)
 -- CPU_ReadMem(4 bytes @ 0xE000ED88) -- CPU_WriteMem(4 bytes @ 0xE000ED88) -- CPU_ReadMem(4 bytes @ 0xE000ED88) -- CPU_WriteMem(4 bytes @ 0xE000ED88)CoreSight components:ROMTbl 0 @ E00FF000 -- CPU_ReadMem(16 bytes @ 0xE00FF000) -- CPU_ReadMem(16 bytes @ 0xE000EFF0) -- CPU_ReadMem(16 bytes @ 0xE000EFE0)ROMTbl 0 [0]: FFF0F000, CID: B105E00D, PID: 001BB000 SCS -- CPU_ReadMem(16 bytes @ 0xE0001FF0) -- CPU_ReadMem(16 bytes @ 0xE0001FE0)ROMTbl 0 [1]: FFF02000, CID: B105E00D, PID: 001BB002 DWT
 -- CPU_ReadMem(16 bytes @ 0xE0002FF0) -- CPU_ReadMem(16 bytes @ 0xE0002FE0)ROMTbl 0 [2]: FFF03000, CID: B105E00D, PID: 000BB003 FPB -- CPU_ReadMem(16 bytes @ 0xE0000FF0) -- CPU_ReadMem(16 bytes @ 0xE0000FE0)ROMTbl 0 [3]: FFF01000, CID: B105E00D, PID: 001BB001 ITM -- CPU_ReadMem(16 bytes @ 0xE00FF010) -- CPU_ReadMem(16 bytes @ 0xE0040FF0) -- CPU_ReadMem(16 bytes @ 0xE0040FE0)ROMTbl 0 [4]: FFF41000, CID: B105900D, PID: 001BB923 TPIU-Lite -- CPU_ReadMem(16 bytes @ 0xE0041FF0)
 -- CPU_ReadMem(16 bytes @ 0xE0041FE0)ROMTbl 0 [5]: FFF42000, CID: B105900D, PID: 101BB924 ETM-M3 >0x0D TIF> >0x21 TIF>  returns 0x1BA01477 (0068ms, 0253ms total)
T3904 000:311 JLINK_GetDLLVersion()  returns 61009 (0000ms, 0253ms total)
T3904 000:311 JLINK_CORE_GetFound()  returns 0x30000FF (0000ms, 0253ms total)
T3904 000:312 JLINK_GetDebugInfo(0x100) -- Value=0xE00FF000  returns 0x00 (0000ms, 0254ms total)
T3904 000:312 JLINK_GetDebugInfo(0x100) -- Value=0xE00FF000  returns 0x00 (0000ms, 0254ms total)
T3904 000:312 JLINK_GetDebugInfo(0x101) -- Value=0xE0041000  returns 0x00 (0000ms, 0254ms total)
T3904 000:312 JLINK_GetDebugInfo(0x102) -- Value=0x00000000  returns 0x00 (0000ms, 0254ms total)
T3904 000:312 JLINK_GetDebugInfo(0x103) -- Value=0xE0040000  returns 0x00 (0000ms, 0254ms total)
T3904 000:312 JLINK_GetDebugInfo(0x104) -- Value=0xE0000000  returns 0x00 (0001ms, 0255ms total)
T3904 000:313 JLINK_GetDebugInfo(0x105) -- Value=0xE0001000  returns 0x00 (0000ms, 0255ms total)
T3904 000:313 JLINK_GetDebugInfo(0x106) -- Value=0xE0002000  returns 0x00 (0000ms, 0255ms total)
T3904 000:313 JLINK_GetDebugInfo(0x107) -- Value=0xE000E000  returns 0x00 (0000ms, 0255ms total)
T3904 000:313 JLINK_GetDebugInfo(0x10C) -- Value=0xE000EDF0  returns 0x00 (0000ms, 0255ms total)
T3904 000:313 JLINK_ReadMemU32(0xE000ED00, 0x0001 Items, ...) -- CPU is running -- CPU_ReadMem(4 bytes @ 0xE000ED00) - Data: 31 C2 1F 41  returns 0x01 (0001ms, 0256ms total)
T3904 000:314 JLINK_SetResetType(JLINKARM_RESET_TYPE_NORMAL)  returns JLINKARM_RESET_TYPE_NORMAL (0000ms, 0256ms total)
T3904 000:314 JLINK_Reset() -- CPU is running -- CPU_WriteMem(4 bytes @ 0xE000EDF0) -- CPU is running -- CPU_WriteMem(4 bytes @ 0xE000EDFC) >0x35 TIF> -- CPU is running -- CPU_WriteMem(4 bytes @ 0xE000ED0C) -- CPU is running -- CPU_ReadMem(4 bytes @ 0xE000EDF0) -- CPU is running -- CPU_ReadMem(4 bytes @ 0xE000EDF0) -- CPU is running -- CPU_WriteMem(4 bytes @ 0xE000EDF0) -- CPU is running -- CPU_WriteMem(4 bytes @ 0xE000EDFC) -- CPU is running -- CPU_ReadMem(4 bytes @ 0xE000EDF0)
 -- CPU_WriteMem(4 bytes @ 0xE0002000) -- CPU_ReadMem(4 bytes @ 0xE000EDFC) -- CPU_ReadMem(4 bytes @ 0xE0001000) (0021ms, 0277ms total)
T3904 000:335 JLINK_ReadReg(R15 (PC))  returns 0x08000144 (0000ms, 0277ms total)
T3904 000:335 JLINK_ReadReg(XPSR)  returns 0x01000000 (0000ms, 0277ms total)
T3904 000:335 JLINK_Halt()  returns 0x00 (0000ms, 0277ms total)
T3904 000:335 JLINK_IsHalted()  returns TRUE (0000ms, 0277ms total)
T3904 000:335 JLINK_ReadMemU32(0xE000EDF0, 0x0001 Items, ...) -- CPU_ReadMem(4 bytes @ 0xE000EDF0) - Data: 03 00 03 00  returns 0x01 (0001ms, 0278ms total)
T3904 000:336 JLINK_WriteU32(0xE000EDF0, 0xA05F0003) -- CPU_WriteMem(4 bytes @ 0xE000EDF0)  returns 0x00 (0001ms, 0279ms total)
T3904 000:337 JLINK_WriteU32(0xE000EDFC, 0x01000000) -- CPU_WriteMem(4 bytes @ 0xE000EDFC)  returns 0x00 (0001ms, 0280ms total)
T3904 000:338 JLINK_GetHWStatus(...)  returns 0x00 (0001ms, 0281ms total)
T3904 000:339 JLINK_GetNumBPUnits(Type = 0xFFFFFF00)  returns 0x06 (0000ms, 0281ms total)
T3904 000:339 JLINK_GetNumBPUnits(Type = 0xF0)  returns 0x2000 (0000ms, 0281ms total)
T3904 000:339 JLINK_GetNumWPUnits()  returns 0x04 (0000ms, 0281ms total)
T3904 000:339 JLINK_GetSpeed()  returns 0xFA0 (0000ms, 0281ms total)
T3904 000:339 JLINK_ReadMemU32(0xE000E004, 0x0001 Items, ...) -- CPU_ReadMem(4 bytes @ 0xE000E004) - Data: 01 00 00 00  returns 0x01 (0001ms, 0282ms total)
T3904 000:340 JLINK_ReadMemU32(0xE000E004, 0x0001 Items, ...) -- CPU_ReadMem(4 bytes @ 0xE000E004) - Data: 01 00 00 00  returns 0x01 (0001ms, 0283ms total)
T3904 000:341 JLINK_WriteMem(0xE0001000, 0x001C Bytes, ...) - Data: 01 00 00 00 00 00 00 00 00 00 00 00 00 00 00 00 ... -- CPU_WriteMem(28 bytes @ 0xE0001000)  returns 0x1C (0002ms, 0285ms total)
T3904 000:343 JLINK_ReadMem (0xE0001000, 0x001C Bytes, ...) -- CPU_ReadMem(28 bytes @ 0xE0001000) - Data: 01 00 00 40 00 00 00 00 00 00 00 00 00 00 00 00 ...  returns 0x00 (0001ms, 0286ms total)
T3904 000:344 JLINK_ReadReg(R15 (PC))  returns 0x08000144 (0000ms, 0286ms total)
T3904 000:344 JLINK_ReadReg(XPSR)  returns 0x01000000 (0000ms, 0286ms total)
T3904 000:434 JLINK_SetResetType(JLINKARM_RESET_TYPE_NORMAL)  returns JLINKARM_RESET_TYPE_NORMAL (0000ms, 0287ms total)
T3904 000:434 JLINK_Reset() -- CPU_WriteMem(4 bytes @ 0xE000EDF0) -- CPU_WriteMem(4 bytes @ 0xE000EDFC) >0x35 TIF> -- CPU_WriteMem(4 bytes @ 0xE000ED0C) -- CPU_ReadMem(4 bytes @ 0xE000EDF0) -- CPU_ReadMem(4 bytes @ 0xE000EDF0) -- CPU_WriteMem(4 bytes @ 0xE000EDF0) -- CPU_WriteMem(4 bytes @ 0xE000EDFC) -- CPU is running -- CPU_ReadMem(4 bytes @ 0xE000EDF0) -- CPU_WriteMem(4 bytes @ 0xE0002000) -- CPU_ReadMem(4 bytes @ 0xE000EDFC) -- CPU_ReadMem(4 bytes @ 0xE0001000) (0020ms, 0307ms total)
T3904 000:454 JLINK_ReadReg(R15 (PC))  returns 0x08000144 (0000ms, 0307ms total)
T3904 000:454 JLINK_ReadReg(XPSR)  returns 0x01000000 (0000ms, 0307ms total)
T3904 000:456 JLINK_ReadMem (0x08000144, 0x003C Bytes, ...) -- CPU_ReadMem(64 bytes @ 0x08000140) -- Updating C cache (64 bytes @ 0x08000140) -- Read from C cache (60 bytes @ 0x08000144) - Data: 05 48 00 47 FE E7 FE E7 FE E7 FE E7 FE E7 FE E7 ...  returns 0x00 (0001ms, 0308ms total)
T3F34 002:917 JLINK_SetBPEx(Addr = 0x08001814, Type = 0xFFFFFFF2)  returns 0x00000001 (0000ms, 0308ms total)
T3F34 002:917 JLINK_SetBPEx(Addr = 0x08000B60, Type = 0xFFFFFFF2)  returns 0x00000002 (0000ms, 0308ms total)
T3F34 002:918 JLINK_Go() -- CPU_WriteMem(4 bytes @ 0xE0002000) -- CPU_WriteMem(4 bytes @ 0xE0002000) -- CPU_ReadMem(4 bytes @ 0xE0001000) -- CPU_WriteMem(4 bytes @ 0xE0002008) -- CPU_WriteMem(4 bytes @ 0xE000200C) -- CPU_WriteMem(4 bytes @ 0xE0002010) -- CPU_WriteMem(4 bytes @ 0xE0002014) -- CPU_WriteMem(4 bytes @ 0xE0002018) -- CPU_WriteMem(4 bytes @ 0xE000201C) -- CPU_WriteMem(4 bytes @ 0xE0001004) (0006ms, 0314ms total)
T3F34 003:026 JLINK_IsHalted()  returns TRUE (0002ms, 0316ms total)
T3F34 003:028 JLINK_Halt()  returns 0x00 (0001ms, 0315ms total)
T3F34 003:029 JLINK_IsHalted()  returns TRUE (0000ms, 0315ms total)
T3F34 003:029 JLINK_IsHalted()  returns TRUE (0000ms, 0315ms total)
T3F34 003:029 JLINK_IsHalted()  returns TRUE (0000ms, 0315ms total)
T3F34 003:029 JLINK_ReadReg(R15 (PC))  returns 0x08001814 (0001ms, 0316ms total)
T3F34 003:030 JLINK_ReadReg(XPSR)  returns 0x61000000 (0000ms, 0316ms total)
T3F34 003:030 JLINK_ClrBPEx(BPHandle = 0x00000001)  returns 0x00 (0000ms, 0316ms total)
T3F34 003:030 JLINK_ClrBPEx(BPHandle = 0x00000002)  returns 0x00 (0000ms, 0316ms total)
T3F34 003:030 JLINK_ReadMemU32(0xE000ED30, 0x0001 Items, ...) -- CPU_ReadMem(4 bytes @ 0xE000ED30) - Data: 03 00 00 00  returns 0x01 (0001ms, 0317ms total)
T3F34 003:031 JLINK_ReadMemU32(0xE0001028, 0x0001 Items, ...) -- CPU_ReadMem(4 bytes @ 0xE0001028) - Data: 00 00 00 00  returns 0x01 (0001ms, 0318ms total)
T3F34 003:032 JLINK_ReadMemU32(0xE0001038, 0x0001 Items, ...) -- CPU_ReadMem(4 bytes @ 0xE0001038) - Data: 00 02 00 00  returns 0x01 (0001ms, 0319ms total)
T3F34 003:033 JLINK_ReadMemU32(0xE0001048, 0x0001 Items, ...) -- CPU_ReadMem(4 bytes @ 0xE0001048) - Data: 00 00 00 00  returns 0x01 (0001ms, 0320ms total)
T3F34 003:034 JLINK_ReadMemU32(0xE0001058, 0x0001 Items, ...) -- CPU_ReadMem(4 bytes @ 0xE0001058) - Data: 00 00 00 00  returns 0x01 (0001ms, 0321ms total)
T3F34 003:036 JLINK_ReadReg(R0)  returns 0x08001815 (0000ms, 0321ms total)
T3F34 003:036 JLINK_ReadReg(R1)  returns 0x20000E80 (0000ms, 0321ms total)
T3F34 003:036 JLINK_ReadReg(R2)  returns 0x00000000 (0000ms, 0321ms total)
T3F34 003:036 JLINK_ReadReg(R3)  returns 0x08001029 (0000ms, 0321ms total)
T3F34 003:037 JLINK_ReadReg(R4)  returns 0x08002294 (0000ms, 0322ms total)
T3F34 003:037 JLINK_ReadReg(R5)  returns 0x08002294 (0000ms, 0322ms total)
T3F34 003:037 JLINK_ReadReg(R6)  returns 0x00000000 (0000ms, 0322ms total)
T3F34 003:037 JLINK_ReadReg(R7)  returns 0x00000000 (0001ms, 0323ms total)
T3F34 003:038 JLINK_ReadReg(R8)  returns 0x00000000 (0000ms, 0323ms total)
T3F34 003:038 JLINK_ReadReg(R9)  returns 0x20000160 (0000ms, 0323ms total)
T3F34 003:038 JLINK_ReadReg(R10)  returns 0x00000000 (0000ms, 0323ms total)
T3F34 003:038 JLINK_ReadReg(R11)  returns 0x00000000 (0000ms, 0323ms total)
T3F34 003:038 JLINK_ReadReg(R12)  returns 0x00000000 (0001ms, 0324ms total)
T3F34 003:039 JLINK_ReadReg(R13 (SP))  returns 0x20000E80 (0000ms, 0324ms total)
T3F34 003:039 JLINK_ReadReg(R14)  returns 0x08000201 (0000ms, 0324ms total)
T3F34 003:039 JLINK_ReadReg(R15 (PC))  returns 0x08001814 (0000ms, 0324ms total)
T3F34 003:039 JLINK_ReadReg(XPSR)  returns 0x61000000 (0001ms, 0325ms total)
T3F34 003:040 JLINK_ReadReg(MSP)  returns 0x20000E80 (0000ms, 0325ms total)
T3F34 003:040 JLINK_ReadReg(PSP)  returns 0x2000C000 (0000ms, 0325ms total)
T3F34 003:040 JLINK_ReadReg(CFBP)  returns 0x00000000 (0000ms, 0325ms total)
T3904 003:044 JLINK_ReadMem (0x00000000, 0x0004 Bytes, ...) -- CPU_ReadMem(4 bytes @ 0x00000004) -- CPU_ReadMem(64 bytes @ 0x08000000) -- Updating C cache (64 bytes @ 0x08000000) -- Read from C cache (4 bytes @ 0x08000000) - Data: 80 0E 00 20  returns 0x00 (0003ms, 0328ms total)
T3904 003:049 JLINK_ReadMem (0x2000003C, 0x0020 Bytes, ...) -- CPU_ReadMem(128 bytes @ 0x20000000) -- Updating C cache (128 bytes @ 0x20000000) -- Read from C cache (32 bytes @ 0x2000003C) - Data: 00 00 00 00 00 00 00 00 00 00 00 00 00 00 00 00 ...  returns 0x00 (0002ms, 0330ms total)
T3F34 083:217 JLINK_SetBPEx(Addr = 0x08000B60, Type = 0xFFFFFFF2)  returns 0x00000003 (0001ms, 0331ms total)
T3F34 083:218 JLINK_Go() -- CPU_WriteMem(4 bytes @ 0xE0002000) -- CPU_ReadMem(4 bytes @ 0xE0001000) -- CPU_WriteMem(4 bytes @ 0xE0002008) -- CPU_WriteMem(4 bytes @ 0xE000200C) (0004ms, 0335ms total)
T3F34 083:323 JLINK_IsHalted()  returns FALSE (0000ms, 0335ms total)
T3F34 083:423 JLINK_IsHalted()  returns FALSE (0000ms, 0335ms total)
T3F34 083:525 JLINK_IsHalted()  returns FALSE (0001ms, 0336ms total)
T3F34 083:627 JLINK_IsHalted()  returns TRUE (0003ms, 0338ms total)
T3F34 083:630 JLINK_Halt()  returns 0x00 (0000ms, 0335ms total)
T3F34 083:630 JLINK_IsHalted()  returns TRUE (0000ms, 0335ms total)
T3F34 083:630 JLINK_IsHalted()  returns TRUE (0000ms, 0335ms total)
T3F34 083:630 JLINK_IsHalted()  returns TRUE (0000ms, 0335ms total)
T3F34 083:630 JLINK_ReadReg(R15 (PC))  returns 0x08000B60 (0001ms, 0336ms total)
T3F34 083:631 JLINK_ReadReg(XPSR)  returns 0x01000000 (0000ms, 0336ms total)
T3F34 083:631 JLINK_ClrBPEx(BPHandle = 0x00000003)  returns 0x00 (0000ms, 0336ms total)
T3F34 083:631 JLINK_ReadMemU32(0xE000ED30, 0x0001 Items, ...) -- CPU_ReadMem(4 bytes @ 0xE000ED30) - Data: 03 00 00 00  returns 0x01 (0001ms, 0337ms total)
T3F34 083:632 JLINK_ReadMemU32(0xE0001028, 0x0001 Items, ...) -- CPU_ReadMem(4 bytes @ 0xE0001028) - Data: 00 00 00 00  returns 0x01 (0002ms, 0339ms total)
T3F34 083:634 JLINK_ReadMemU32(0xE0001038, 0x0001 Items, ...) -- CPU_ReadMem(4 bytes @ 0xE0001038) - Data: 00 02 00 00  returns 0x01 (0001ms, 0340ms total)
T3F34 083:635 JLINK_ReadMemU32(0xE0001048, 0x0001 Items, ...) -- CPU_ReadMem(4 bytes @ 0xE0001048) - Data: 00 00 00 00  returns 0x01 (0001ms, 0341ms total)
T3F34 083:636 JLINK_ReadMemU32(0xE0001058, 0x0001 Items, ...) -- CPU_ReadMem(4 bytes @ 0xE0001058) - Data: 00 00 00 00  returns 0x01 (0002ms, 0343ms total)
T3F34 083:638 JLINK_ReadReg(R0)  returns 0x00000007 (0000ms, 0343ms total)
T3F34 083:638 JLINK_ReadReg(R1)  returns 0x20000E60 (0000ms, 0343ms total)
T3F34 083:638 JLINK_ReadReg(R2)  returns 0x20000063 (0000ms, 0343ms total)
T3F34 083:638 JLINK_ReadReg(R3)  returns 0x20000064 (0000ms, 0343ms total)
T3F34 083:638 JLINK_ReadReg(R4)  returns 0x0000032C (0000ms, 0343ms total)
T3F34 083:638 JLINK_ReadReg(R5)  returns 0x40011408 (0001ms, 0344ms total)
T3F34 083:639 JLINK_ReadReg(R6)  returns 0x00000000 (0000ms, 0344ms total)
T3F34 083:639 JLINK_ReadReg(R7)  returns 0x00000000 (0000ms, 0344ms total)
T3F34 083:639 JLINK_ReadReg(R8)  returns 0x00000000 (0000ms, 0344ms total)
T3F34 083:639 JLINK_ReadReg(R9)  returns 0x20000160 (0000ms, 0344ms total)
T3F34 083:639 JLINK_ReadReg(R10)  returns 0x00000000 (0001ms, 0345ms total)
T3F34 083:640 JLINK_ReadReg(R11)  returns 0x00000000 (0000ms, 0345ms total)
T3F34 083:640 JLINK_ReadReg(R12)  returns 0x00000000 (0000ms, 0345ms total)
T3F34 083:640 JLINK_ReadReg(R13 (SP))  returns 0x20000E70 (0000ms, 0345ms total)
T3F34 083:640 JLINK_ReadReg(R14)  returns 0x0800100B (0000ms, 0345ms total)
T3F34 083:640 JLINK_ReadReg(R15 (PC))  returns 0x08000B60 (0000ms, 0345ms total)
T3F34 083:640 JLINK_ReadReg(XPSR)  returns 0x01000000 (0001ms, 0346ms total)
T3F34 083:641 JLINK_ReadReg(MSP)  returns 0x20000E70 (0000ms, 0346ms total)
T3F34 083:641 JLINK_ReadReg(PSP)  returns 0x2000C000 (0000ms, 0346ms total)
T3F34 083:641 JLINK_ReadReg(CFBP)  returns 0x00000000 (0000ms, 0346ms total)
T3904 083:641 JLINK_ReadMem (0x20000E7C, 0x0004 Bytes, ...) -- CPU_ReadMem(64 bytes @ 0x20000E40) -- Updating C cache (64 bytes @ 0x20000E40) -- Read from C cache (4 bytes @ 0x20000E7C) - Data: 45 18 00 08  returns 0x00 (0002ms, 0348ms total)
T3904 083:643 JLINK_ReadMem (0x20000E70, 0x0004 Bytes, ...) -- Read from C cache (4 bytes @ 0x20000E70) - Data: E8 03 00 00  returns 0x00 (0000ms, 0348ms total)
T3904 083:643 JLINK_ReadMem (0x20000E74, 0x0004 Bytes, ...) -- Read from C cache (4 bytes @ 0x20000E74) - Data: 94 22 00 08  returns 0x00 (0001ms, 0349ms total)
T3904 083:644 JLINK_ReadMem (0x20000E78, 0x0004 Bytes, ...) -- Read from C cache (4 bytes @ 0x20000E78) - Data: 00 00 00 00  returns 0x00 (0000ms, 0349ms total)
T3904 083:644 JLINK_ReadMem (0x00000000, 0x0004 Bytes, ...) -- CPU_ReadMem(4 bytes @ 0x00000004) -- CPU_ReadMem(64 bytes @ 0x08000000) -- Updating C cache (64 bytes @ 0x08000000) -- Read from C cache (4 bytes @ 0x08000000) - Data: 80 0E 00 20  returns 0x00 (0002ms, 0351ms total)
T3904 083:649 JLINK_ReadMem (0x2000003C, 0x0020 Bytes, ...) -- CPU_ReadMem(128 bytes @ 0x20000000) -- Updating C cache (128 bytes @ 0x20000000) -- Read from C cache (32 bytes @ 0x2000003C) - Data: 01 02 03 04 05 06 07 08 09 0A 0B 0C 0D 0E 0F 10 ...  returns 0x00 (0002ms, 0353ms total)
T3F34 084:821 JLINK_Step() -- CPU_ReadMem(64 bytes @ 0x08000B40) -- Updating C cache (64 bytes @ 0x08000B40) -- Read from C cache (2 bytes @ 0x08000B60) -- CPU_ReadMem(4 bytes @ 0xE000ED18) -- CPU_WriteMem(4 bytes @ 0xE000ED18) -- CPU_ReadMem(4 bytes @ 0xE000ED18) -- CPU_WriteMem(4 bytes @ 0xE000ED18) -- CPU_ReadMem(4 bytes @ 0xE0001004) -- CPU_ReadMem(64 bytes @ 0x08000B80) -- Updating C cache (64 bytes @ 0x08000B80) -- Read from C cache (4 bytes @ 0x08000B94) -- Simulated  returns 0x00
 (0007ms, 0360ms total)
T3F34 084:828 JLINK_ReadReg(R15 (PC))  returns 0x08000B62 (0000ms, 0360ms total)
T3F34 084:828 JLINK_ReadReg(XPSR)  returns 0x01000000 (0001ms, 0361ms total)
T3F34 084:829 JLINK_SetBPEx(Addr = 0x08000B60, Type = 0xFFFFFFF2)  returns 0x00000004 (0000ms, 0361ms total)
T3F34 084:829 JLINK_Go() -- CPU_WriteMem(4 bytes @ 0xE0002000) -- CPU_ReadMem(4 bytes @ 0xE0001000) -- CPU_WriteMem(4 bytes @ 0xE0001004) (0004ms, 0365ms total)
T3F34 084:934 JLINK_IsHalted()  returns FALSE (0000ms, 0365ms total)
T3F34 085:036 JLINK_IsHalted()  returns FALSE (0001ms, 0366ms total)
T3F34 085:137 JLINK_IsHalted()  returns FALSE (0001ms, 0366ms total)
T3F34 085:239 JLINK_IsHalted()  returns FALSE (0001ms, 0366ms total)
T3F34 085:341 JLINK_IsHalted()  returns FALSE (0001ms, 0366ms total)
T3F34 085:443 JLINK_IsHalted()  returns FALSE (0001ms, 0366ms total)
T3F34 085:544 JLINK_IsHalted()  returns FALSE (0001ms, 0366ms total)
T3F34 085:645 JLINK_IsHalted()  returns FALSE (0001ms, 0366ms total)
T3F34 085:747 JLINK_IsHalted()  returns FALSE (0001ms, 0366ms total)
T3F34 085:849 JLINK_IsHalted()  returns FALSE (0000ms, 0365ms total)
T3F34 085:950 JLINK_IsHalted()  returns TRUE (0003ms, 0368ms total)
T3F34 085:953 JLINK_Halt()  returns 0x00 (0000ms, 0365ms total)
T3F34 085:953 JLINK_IsHalted()  returns TRUE (0000ms, 0365ms total)
T3F34 085:953 JLINK_IsHalted()  returns TRUE (0001ms, 0366ms total)
T3F34 085:954 JLINK_IsHalted()  returns TRUE (0000ms, 0365ms total)
T3F34 085:954 JLINK_ReadReg(R15 (PC))  returns 0x08000B60 (0000ms, 0365ms total)
T3F34 085:954 JLINK_ReadReg(XPSR)  returns 0x01000000 (0000ms, 0365ms total)
T3F34 085:954 JLINK_ClrBPEx(BPHandle = 0x00000004)  returns 0x00 (0000ms, 0365ms total)
T3F34 085:954 JLINK_ReadMemU32(0xE000ED30, 0x0001 Items, ...) -- CPU_ReadMem(4 bytes @ 0xE000ED30) - Data: 03 00 00 00  returns 0x01 (0002ms, 0367ms total)
T3F34 085:956 JLINK_ReadMemU32(0xE0001028, 0x0001 Items, ...) -- CPU_ReadMem(4 bytes @ 0xE0001028) - Data: 00 00 00 00  returns 0x01 (0001ms, 0368ms total)
T3F34 085:957 JLINK_ReadMemU32(0xE0001038, 0x0001 Items, ...) -- CPU_ReadMem(4 bytes @ 0xE0001038) - Data: 00 02 00 00  returns 0x01 (0001ms, 0369ms total)
T3F34 085:958 JLINK_ReadMemU32(0xE0001048, 0x0001 Items, ...) -- CPU_ReadMem(4 bytes @ 0xE0001048) - Data: 00 00 00 00  returns 0x01 (0001ms, 0370ms total)
T3F34 085:959 JLINK_ReadMemU32(0xE0001058, 0x0001 Items, ...) -- CPU_ReadMem(4 bytes @ 0xE0001058) - Data: 00 00 00 00  returns 0x01 (0001ms, 0371ms total)
T3F34 085:960 JLINK_ReadReg(R0)  returns 0x00000007 (0000ms, 0371ms total)
T3F34 085:961 JLINK_ReadReg(R1)  returns 0x20000E60 (0000ms, 0372ms total)
T3F34 085:961 JLINK_ReadReg(R2)  returns 0x20000063 (0000ms, 0372ms total)
T3F34 085:961 JLINK_ReadReg(R3)  returns 0x20000064 (0000ms, 0372ms total)
T3F34 085:961 JLINK_ReadReg(R4)  returns 0x0000032C (0000ms, 0372ms total)
T3F34 085:961 JLINK_ReadReg(R5)  returns 0x40011408 (0001ms, 0373ms total)
T3F34 085:962 JLINK_ReadReg(R6)  returns 0x00000000 (0000ms, 0373ms total)
T3F34 085:962 JLINK_ReadReg(R7)  returns 0x00000000 (0000ms, 0373ms total)
T3F34 085:962 JLINK_ReadReg(R8)  returns 0x00000000 (0000ms, 0373ms total)
T3F34 085:962 JLINK_ReadReg(R9)  returns 0x20000160 (0000ms, 0373ms total)
T3F34 085:962 JLINK_ReadReg(R10)  returns 0x00000000 (0001ms, 0374ms total)
T3F34 085:963 JLINK_ReadReg(R11)  returns 0x00000000 (0000ms, 0374ms total)
T3F34 085:963 JLINK_ReadReg(R12)  returns 0x00000000 (0000ms, 0374ms total)
T3F34 085:963 JLINK_ReadReg(R13 (SP))  returns 0x20000E70 (0000ms, 0374ms total)
T3F34 085:963 JLINK_ReadReg(R14)  returns 0x0800100B (0000ms, 0374ms total)
T3F34 085:963 JLINK_ReadReg(R15 (PC))  returns 0x08000B60 (0000ms, 0374ms total)
T3F34 085:964 JLINK_ReadReg(XPSR)  returns 0x01000000 (0000ms, 0374ms total)
T3F34 085:964 JLINK_ReadReg(MSP)  returns 0x20000E70 (0000ms, 0374ms total)
T3F34 085:964 JLINK_ReadReg(PSP)  returns 0x2000C000 (0000ms, 0374ms total)
T3F34 085:964 JLINK_ReadReg(CFBP)  returns 0x00000000 (0000ms, 0374ms total)
T3904 085:964 JLINK_ReadMem (0x20000E7C, 0x0004 Bytes, ...) -- CPU_ReadMem(64 bytes @ 0x20000E40) -- Updating C cache (64 bytes @ 0x20000E40) -- Read from C cache (4 bytes @ 0x20000E7C) - Data: 45 18 00 08  returns 0x00 (0002ms, 0376ms total)
T3904 085:966 JLINK_ReadMem (0x20000E70, 0x0004 Bytes, ...) -- Read from C cache (4 bytes @ 0x20000E70) - Data: E8 03 00 00  returns 0x00 (0001ms, 0377ms total)
T3904 085:967 JLINK_ReadMem (0x20000E74, 0x0004 Bytes, ...) -- Read from C cache (4 bytes @ 0x20000E74) - Data: 94 22 00 08  returns 0x00 (0000ms, 0377ms total)
T3904 085:967 JLINK_ReadMem (0x20000E78, 0x0004 Bytes, ...) -- Read from C cache (4 bytes @ 0x20000E78) - Data: 00 00 00 00  returns 0x00 (0000ms, 0377ms total)
T3904 085:967 JLINK_ReadMem (0x00000000, 0x0004 Bytes, ...) -- CPU_ReadMem(4 bytes @ 0x00000004) -- CPU_ReadMem(64 bytes @ 0x08000000) -- Updating C cache (64 bytes @ 0x08000000) -- Read from C cache (4 bytes @ 0x08000000) - Data: 80 0E 00 20  returns 0x00 (0003ms, 0380ms total)
T3904 085:973 JLINK_ReadMem (0x2000003C, 0x0020 Bytes, ...) -- CPU_ReadMem(128 bytes @ 0x20000000) -- Updating C cache (128 bytes @ 0x20000000) -- Read from C cache (32 bytes @ 0x2000003C) - Data: 01 02 03 04 05 06 07 08 09 0A 0B 0C 0D 0E 0F 10 ...  returns 0x00 (0002ms, 0382ms total)
T3F34 087:446 JLINK_Step() -- CPU_ReadMem(64 bytes @ 0x08000B40) -- Updating C cache (64 bytes @ 0x08000B40) -- Read from C cache (2 bytes @ 0x08000B60) -- CPU_ReadMem(4 bytes @ 0xE0001004) -- CPU_ReadMem(64 bytes @ 0x08000B80) -- Updating C cache (64 bytes @ 0x08000B80) -- Read from C cache (4 bytes @ 0x08000B94) -- Simulated  returns 0x00 (0004ms, 0386ms total)
T3F34 087:450 JLINK_ReadReg(R15 (PC))  returns 0x08000B62 (0000ms, 0386ms total)
T3F34 087:450 JLINK_ReadReg(XPSR)  returns 0x01000000 (0000ms, 0386ms total)
T3F34 087:450 JLINK_SetBPEx(Addr = 0x08000B60, Type = 0xFFFFFFF2)  returns 0x00000005 (0000ms, 0386ms total)
T3F34 087:450 JLINK_Go() -- CPU_WriteMem(4 bytes @ 0xE0002000) -- CPU_ReadMem(4 bytes @ 0xE0001000) -- CPU_WriteMem(4 bytes @ 0xE0001004) (0004ms, 0390ms total)
